;Version, 1, 0
;DIFF_LVTP_LEFT.m1:id,;DIFF_LVTP_LEFT.m1:rout,;DIFF_LVTP_LEFT.m1:vds
;X, Y,;X, Y,;X, Y
;Re, Re,;Re, Re,;Re, Re
;VIN_DM, I,;VIN_DM, R,;VIN_DM, V
;xunit, A,;xunit, yunit,;xunit, V
-0.2,2.428364881963879e-07,-0.2,5424.050796831136,-0.2,0.001315857598868098
-0.1996,2.428365282434487e-07,-0.1996,5427.556007551525,-0.1996,0.00131670441200904
-0.1992,2.428365281688172e-07,-0.1992,5431.063308555317,-0.1992,0.001317551509454895
-0.1988,2.428365280904492e-07,-0.1988,5434.577785548161,-0.1988,0.00131840033684405
-0.1984,2.428365280102017e-07,-0.1984,5438.09945693481,-0.1984,0.001319250898594526
-0.198,2.428365279274653e-07,-0.198,5441.628341186471,-0.198,0.001320103199126788
-0.1975999999999999,2.428365278422057e-07,-0.1975999999999999,5445.164456833734,-0.1975999999999999,0.001320957242878618
-0.1971999999999999,2.42836527754454e-07,-0.1971999999999999,5448.70782246571,-0.1971999999999999,0.001321813034302011
-0.1967999999999999,2.4283652766419e-07,-0.1967999999999999,5452.258456732205,-0.1967999999999999,0.001322670577863172
-0.1963999999999999,2.42836527571455e-07,-0.1963999999999999,5455.816378348062,-0.1963999999999999,0.001323529878044183
-0.1959999999999999,2.428365274762022e-07,-0.1959999999999999,5459.381606084093,-0.1959999999999999,0.001324390939339892
-0.1955999999999999,2.428365273784601e-07,-0.1955999999999999,5462.954158776719,-0.1955999999999999,0.001325253766261247
-0.1951999999999999,2.428365272782243e-07,-0.1951999999999999,5466.534055321598,-0.1951999999999999,0.001326118363333073
-0.1947999999999999,2.428365271754997e-07,-0.1947999999999999,5470.121314678321,-0.1947999999999999,0.001326984735095516
-0.1943999999999999,2.428365270702717e-07,-0.1943999999999999,5473.715955868261,-0.1943999999999999,0.001327852886103265
-0.1939999999999998,2.428365269625362e-07,-0.1939999999999998,5477.317997973765,-0.1939999999999998,0.001328722820925665
-0.1935999999999998,2.428365268523187e-07,-0.1935999999999998,5480.927460141663,-0.1935999999999998,0.001329594544147494
-0.1931999999999998,2.428365267396041e-07,-0.1931999999999998,5484.544361581418,-0.1931999999999998,0.001330468060368295
-0.1927999999999998,2.428365266244053e-07,-0.1927999999999998,5488.168721566018,-0.1927999999999998,0.00133134337420282
-0.1923999999999998,2.428365265066907e-07,-0.1923999999999998,5491.800559430763,-0.1923999999999998,0.001332220490280478
-0.1919999999999998,2.428365263865002e-07,-0.1919999999999998,5495.439894577127,-0.1919999999999998,0.001333099413246774
-0.1915999999999998,2.42836526263809e-07,-0.1915999999999998,5499.086746469124,-0.1915999999999998,0.00133398014776176
-0.1911999999999998,2.428365261386283e-07,-0.1911999999999998,5502.741134635199,-0.1911999999999998,0.001334862698501027
-0.1907999999999997,2.428365260109723e-07,-0.1907999999999997,5506.403078668609,-0.1907999999999997,0.001335747070155602
-0.1903999999999997,2.428365258808185e-07,-0.1903999999999997,5510.072598226845,-0.1903999999999997,0.001336633267431608
-0.1899999999999997,2.42836525748139e-07,-0.1899999999999997,5513.749713033219,-0.1899999999999997,0.001337521295050825
-0.1895999999999997,2.428365256129863e-07,-0.1895999999999997,5517.434442877533,-0.1895999999999997,0.00133841115775124
-0.1891999999999997,2.4283652547536e-07,-0.1891999999999997,5521.126807613158,-0.1891999999999997,0.001339302860285718
-0.1887999999999997,2.428365253352328e-07,-0.1887999999999997,5524.826827161186,-0.1887999999999997,0.001340196407423111
-0.1883999999999997,2.428365251925987e-07,-0.1883999999999997,5528.534521506772,-0.1883999999999997,0.001341091803947592
-0.1879999999999997,2.428365250474978e-07,-0.1879999999999997,5532.249910704341,-0.1879999999999997,0.001341989054660098
-0.1875999999999997,2.428365248999058e-07,-0.1875999999999997,5535.973014872921,-0.1875999999999997,0.001342888164376554
-0.1871999999999996,2.428365247497851e-07,-0.1871999999999996,5539.703854198351,-0.1871999999999996,0.001343789137928764
-0.1867999999999996,2.42836524597237e-07,-0.1867999999999996,5543.442448937547,-0.1867999999999996,0.001344691980166179
-0.1863999999999996,2.428365244421562e-07,-0.1863999999999996,5547.188819410207,-0.1863999999999996,0.001345596695952023
-0.1859999999999996,2.428365242845724e-07,-0.1859999999999996,5550.942986006523,-0.1859999999999996,0.001346503290167056
-0.1855999999999996,2.428365241245299e-07,-0.1855999999999996,5554.704969183091,-0.1855999999999996,0.001347411767707918
-0.1851999999999996,2.428365239619786e-07,-0.1851999999999996,5558.474789467665,-0.1851999999999996,0.001348322133487678
-0.1847999999999996,2.428365237969284e-07,-0.1847999999999996,5562.252467455297,-0.1847999999999996,0.001349234392435728
-0.1843999999999996,2.428365236294253e-07,-0.1843999999999996,5566.038023809327,-0.1843999999999996,0.001350148549497887
-0.1839999999999996,2.428365234594268e-07,-0.1839999999999996,5569.831479263395,-0.1839999999999996,0.001351064609636188
-0.1835999999999995,2.428365232869131e-07,-0.1835999999999995,5573.632854619746,-0.1835999999999995,0.001351982577829203
-0.1831999999999995,2.42836523111902e-07,-0.1831999999999995,5577.442170751102,-0.1831999999999995,0.00135290245907238
-0.1827999999999995,2.428365229344139e-07,-0.1827999999999995,5581.259448600111,-0.1827999999999995,0.001353824258377823
-0.1823999999999995,2.428365227544391e-07,-0.1823999999999995,5585.084709182169,-0.1823999999999995,0.00135474798077484
-0.1819999999999995,2.42836522571988e-07,-0.1819999999999995,5588.917973578895,-0.1819999999999995,0.001355673631308507
-0.1815999999999995,2.428365223870149e-07,-0.1815999999999995,5592.759262946244,-0.1815999999999995,0.001356601215041331
-0.1811999999999995,2.428365221995629e-07,-0.1811999999999995,5596.608598509993,-0.1811999999999995,0.001357530737052914
-0.1807999999999995,2.428365220096289e-07,-0.1807999999999995,5600.466001569653,-0.1807999999999995,0.001358462202440069
-0.1803999999999994,2.428365218171882e-07,-0.1803999999999994,5604.331493494404,-0.1803999999999994,0.00135939561631615
-0.1799999999999994,2.428365216222612e-07,-0.1799999999999994,5608.205095726604,-0.1799999999999994,0.001360330983812053
-0.1795999999999994,2.428365214248459e-07,-0.1795999999999994,5612.086829781015,-0.1795999999999994,0.00136126831007588
-0.1791999999999994,2.42836521224907e-07,-0.1791999999999994,5615.976717245863,-0.1791999999999994,0.001362207600272947
-0.1787999999999994,2.428365210225256e-07,-0.1787999999999994,5619.87477978143,-0.1787999999999994,0.001363148859586327
-0.1783999999999994,2.428365208176231e-07,-0.1783999999999994,5623.781039121081,-0.1783999999999994,0.001364092093215641
-0.1779999999999994,2.428365206102282e-07,-0.1779999999999994,5627.695517074816,-0.1779999999999994,0.001365037306379269
-0.1775999999999994,2.428365204003381e-07,-0.1775999999999994,5631.618235523309,-0.1775999999999994,0.001365984504312245
-0.1771999999999994,2.428365201879689e-07,-0.1771999999999994,5635.549216422887,-0.1771999999999994,0.001366933692267702
-0.1767999999999993,2.428365199730961e-07,-0.1767999999999993,5639.488481805717,-0.1767999999999993,0.001367884875516534
-0.1763999999999993,2.428365197557018e-07,-0.1763999999999993,5643.436053777892,-0.1763999999999993,0.001368838059347288
-0.1759999999999993,2.428365195358583e-07,-0.1759999999999993,5647.391954520595,-0.1759999999999993,0.001369793249066831
-0.1755999999999993,2.428365193134721e-07,-0.1755999999999993,5651.356206290014,-0.1755999999999993,0.001370750449998903
-0.1751999999999993,2.42836519088624e-07,-0.1751999999999993,5655.328831421676,-0.1751999999999993,0.00137170966748712
-0.1747999999999993,2.428365188612688e-07,-0.1747999999999993,5659.309852322136,-0.1747999999999993,0.001372670906891305
-0.1743999999999993,2.428365186314201e-07,-0.1743999999999993,5663.299291480134,-0.1743999999999993,0.001373634173591043
-0.1739999999999993,2.428365183990842e-07,-0.1739999999999993,5667.297171457325,-0.1739999999999993,0.00137459947298324
-0.1735999999999993,2.428365181641966e-07,-0.1735999999999993,5671.303514893396,-0.1735999999999993,0.001375566810483009
-0.1731999999999992,2.428365179268298e-07,-0.1731999999999992,5675.318344507845,-0.1731999999999992,0.001376536191525113
-0.1727999999999992,2.428365176869799e-07,-0.1727999999999992,5679.341683095683,-0.1727999999999992,0.001377507621561858
-0.1723999999999992,2.428365174446398e-07,-0.1723999999999992,5683.373553530471,-0.1723999999999992,0.0013784811060642
-0.1719999999999992,2.428365171997639e-07,-0.1719999999999992,5687.413978765656,-0.1719999999999992,0.00137945665052186
-0.1715999999999992,2.428365169524135e-07,-0.1715999999999992,5691.462981832195,-0.1715999999999992,0.001380434260443542
-0.1711999999999992,2.428365167025584e-07,-0.1711999999999992,5695.520585841133,-0.1711999999999992,0.001381413941356491
-0.1707999999999992,2.428365164501681e-07,-0.1707999999999992,5699.586813982564,-0.1707999999999992,0.001382395698806715
-0.1703999999999992,2.428365161952981e-07,-0.1703999999999992,5703.661689527221,-0.1703999999999992,0.001383379538359875
-0.1699999999999992,2.428365159379124e-07,-0.1699999999999992,5707.745235826178,-0.1699999999999992,0.001384365465600168
-0.1695999999999991,2.428365156780286e-07,-0.1695999999999991,5711.837476310445,-0.1695999999999991,0.001385353486131113
-0.1691999999999991,2.428365154156483e-07,-0.1691999999999991,5715.938434491545,-0.1691999999999991,0.001386343605575213
-0.1687999999999991,2.428365151507239e-07,-0.1687999999999991,5720.048133963651,-0.1687999999999991,0.001387335829574399
-0.1683999999999991,2.428365148833178e-07,-0.1683999999999991,5724.166598401948,-0.1683999999999991,0.001388330163790363
-0.1679999999999991,2.428365146133901e-07,-0.1679999999999991,5728.293851563716,-0.1679999999999991,0.001389326613903785
-0.1675999999999991,2.428365143409707e-07,-0.1675999999999991,5732.429917288759,-0.1675999999999991,0.001390325185615326
-0.1671999999999991,2.428365140660176e-07,-0.1671999999999991,5736.574819498613,-0.1671999999999991,0.001391325884644634
-0.1667999999999991,2.428365137885578e-07,-0.1667999999999991,5740.728582199796,-0.1667999999999991,0.001392328716731894
-0.166399999999999,2.428365135085998e-07,-0.166399999999999,5744.891229481323,-0.166399999999999,0.001393333687636833
-0.165999999999999,2.428365132260824e-07,-0.165999999999999,5749.062785513986,-0.165999999999999,0.001394340803138161
-0.165599999999999,2.428365129410768e-07,-0.165599999999999,5753.243274556625,-0.165599999999999,0.001395350069036239
-0.165199999999999,2.428365126535457e-07,-0.165199999999999,5757.432720949207,-0.165199999999999,0.001396361491150078
-0.164799999999999,2.428365123635172e-07,-0.164799999999999,5761.631149118928,-0.164799999999999,0.001397375075319784
-0.164399999999999,2.428365120709582e-07,-0.164399999999999,5765.838583577733,-0.164399999999999,0.001398390827405227
-0.163999999999999,2.428365117758685e-07,-0.163999999999999,5770.055048921166,-0.163999999999999,0.001399408753286258
-0.163599999999999,2.428365114782806e-07,-0.163599999999999,5774.280569833586,-0.163599999999999,0.001400428858864045
-0.163199999999999,2.428365111781222e-07,-0.163199999999999,5778.515171084092,-0.163199999999999,0.001401451150059296
-0.1627999999999989,2.428365108754944e-07,-0.1627999999999989,5782.758877529653,-0.1627999999999989,0.001402475632814482
-0.1623999999999989,2.428365105703062e-07,-0.1623999999999989,5787.011714113044,-0.1623999999999989,0.001403502313091387
-0.1619999999999989,2.42836510262607e-07,-0.1619999999999989,5791.273705865375,-0.1619999999999989,0.00140453119687356
-0.1615999999999989,2.428365099523631e-07,-0.1615999999999989,5795.544877904526,-0.1615999999999989,0.001405562290164641
-0.1611999999999989,2.428365096396087e-07,-0.1611999999999989,5799.825255439227,-0.1611999999999989,0.001406595598990257
-0.1607999999999989,2.428365093243079e-07,-0.1607999999999989,5804.114863764742,-0.1607999999999989,0.001407631129396125
-0.1603999999999989,2.428365090064862e-07,-0.1603999999999989,5808.413728264581,-0.1603999999999989,0.001408668887449283
-0.1599999999999989,2.428365086861322e-07,-0.1599999999999989,5812.721874414026,-0.1599999999999989,0.001409708879238303
-0.1595999999999989,2.428365083632257e-07,-0.1595999999999989,5817.039327777045,-0.1595999999999989,0.001410751110872743
-0.1591999999999988,2.428365080377909e-07,-0.1591999999999988,5821.366114008135,-0.1591999999999988,0.001411795588483922
-0.1587999999999988,2.428365077098424e-07,-0.1587999999999988,5825.702258852887,-0.1587999999999988,0.001412842318224694
-0.1583999999999988,2.428365073793287e-07,-0.1583999999999988,5830.047788146026,-0.1583999999999988,0.001413891306268678
-0.1579999999999988,2.428365070462646e-07,-0.1579999999999988,5834.402727814332,-0.1579999999999988,0.001414942558811694
-0.1575999999999988,2.428365067106753e-07,-0.1575999999999988,5838.767103878728,-0.1575999999999988,0.001415996082071991
-0.1571999999999988,2.428365063725536e-07,-0.1571999999999988,5843.140942449128,-0.1571999999999988,0.001417051882288689
-0.1567999999999988,2.428365060318802e-07,-0.1567999999999988,5847.5242697302,-0.1567999999999988,0.001418109965723335
-0.1563999999999988,2.428365056886233e-07,-0.1563999999999988,5851.917112018186,-0.1563999999999988,0.001419170338659126
-0.1559999999999988,2.428365053428498e-07,-0.1559999999999988,5856.319495705671,-0.1559999999999988,0.001420233007402683
-0.1555999999999987,2.428365049945384e-07,-0.1555999999999987,5860.731447275155,-0.1555999999999987,0.001421297978281388
-0.1551999999999987,2.428365046436638e-07,-0.1551999999999987,5865.152993304999,-0.1551999999999987,0.001422365257645386
-0.1547999999999987,2.428365042902254e-07,-0.1547999999999987,5869.584160469956,-0.1547999999999987,0.0014234348518678
-0.1543999999999987,2.428365039342455e-07,-0.1543999999999987,5874.024975537451,-0.1543999999999987,0.001424506767343847
-0.1539999999999987,2.428365035756803e-07,-0.1539999999999987,5878.47546537199,-0.1539999999999987,0.001425581010491395
-0.1535999999999987,2.428365032145957e-07,-0.1535999999999987,5882.935656933319,-0.1535999999999987,0.001426657587751512
-0.1531999999999987,2.428365028509107e-07,-0.1531999999999987,5887.405577277503,-0.1531999999999987,0.001427736505587252
-0.1527999999999987,2.428365024847188e-07,-0.1527999999999987,5891.885253558337,-0.1527999999999987,0.001428817770485868
-0.1523999999999986,2.428365021159387e-07,-0.1523999999999986,5896.374713026023,-0.1523999999999986,0.001429901388956378
-0.1519999999999986,2.428365017445765e-07,-0.1519999999999986,5900.87398302746,-0.1519999999999986,0.001430987367531333
-0.1515999999999986,2.428365013706426e-07,-0.1515999999999986,5905.383091010442,-0.1515999999999986,0.001432075712767156
-0.1511999999999986,2.42836500994142e-07,-0.1511999999999986,5909.902064518427,-0.1511999999999986,0.001433166431242916
-0.1507999999999986,2.428365006150761e-07,-0.1507999999999986,5914.430931197552,-0.1507999999999986,0.001434259529561999
-0.1503999999999986,2.428365002334586e-07,-0.1503999999999986,5918.969718788223,-0.1503999999999986,0.001435355014350215
-0.1499999999999986,2.428364998492269e-07,-0.1499999999999986,5923.518455133947,-0.1499999999999986,0.001436452892257356
-0.1495999999999986,2.428364994624534e-07,-0.1495999999999986,5928.077168179473,-0.1495999999999986,0.001437553169957972
-0.1491999999999986,2.428364990730766e-07,-0.1491999999999986,5932.645885968278,-0.1491999999999986,0.001438655854149262
-0.1487999999999985,2.428364986811111e-07,-0.1487999999999985,5937.224636644693,-0.1487999999999985,0.001439760951552738
-0.1483999999999985,2.428364982865714e-07,-0.1483999999999985,5941.813448458091,-0.1483999999999985,0.00144086846891478
-0.1479999999999985,2.428364978894431e-07,-0.1479999999999985,5946.412349756321,-0.1479999999999985,0.001441978413004974
-0.1475999999999985,2.42836497489744e-07,-0.1475999999999985,5951.021368991541,-0.1475999999999985,0.001443090790617774
-0.1471999999999985,2.428364970874279e-07,-0.1471999999999985,5955.640534717718,-0.1471999999999985,0.001444205608571392
-0.1467999999999985,2.428364966825662e-07,-0.1467999999999985,5960.269875595175,-0.1467999999999985,0.001445322873709909
-0.1463999999999985,2.428364962750721e-07,-0.1463999999999985,5964.909420385094,-0.1463999999999985,0.001446442592900388
-0.1459999999999985,2.428364958649948e-07,-0.1459999999999985,5969.559197954671,-0.1459999999999985,0.001447564773035759
-0.1455999999999985,2.428364954523233e-07,-0.1455999999999985,5974.219237275549,-0.1455999999999985,0.001448689421033378
-0.1451999999999984,2.428364950370204e-07,-0.1451999999999984,5978.889567425097,-0.1451999999999984,0.001449816543835469
-0.1447999999999984,2.428364946191685e-07,-0.1447999999999984,5983.570217587378,-0.1447999999999984,0.001450946148410237
-0.1443999999999984,2.428364941986602e-07,-0.1443999999999984,5988.261217050703,-0.1443999999999984,0.001452078241749422
-0.1439999999999984,2.428364937755764e-07,-0.1439999999999984,5992.962595212904,-0.1439999999999984,0.001453212830871853
-0.1435999999999984,2.428364933498491e-07,-0.1435999999999984,5997.674381575544,-0.1435999999999984,0.001454349922820009
-0.1431999999999984,2.428364929215456e-07,-0.1431999999999984,6002.396605753994,-0.1431999999999984,0.001455489524664122
-0.1427999999999984,2.428364924905975e-07,-0.1427999999999984,6007.129297464053,-0.1427999999999984,0.001456631643497408
-0.1423999999999984,2.428364920570453e-07,-0.1423999999999984,6011.872486537454,-0.1423999999999984,0.00145777628644117
-0.1419999999999983,2.428364916208831e-07,-0.1419999999999983,6016.626202910718,-0.1419999999999983,0.001458923460641248
-0.1415999999999983,2.428364911820838e-07,-0.1415999999999983,6021.390476631281,-0.1415999999999983,0.001460073173269572
-0.1411999999999983,2.428364907406543e-07,-0.1411999999999983,6026.165337859377,-0.1411999999999983,0.001461225431525048
-0.1407999999999983,2.428364902966298e-07,-0.1407999999999983,6030.950816863648,-0.1407999999999983,0.001462380242632344
-0.1403999999999983,2.428364898499357e-07,-0.1403999999999983,6035.746944022784,-0.1403999999999983,0.001463537613841548
-0.1399999999999983,2.428364894006399e-07,-0.1399999999999983,6040.553749830555,-0.1399999999999983,0.001464697552430838
-0.1395999999999983,2.428364889487138e-07,-0.1395999999999983,6045.371264891125,-0.1395999999999983,0.001465860065703928
-0.1391999999999983,2.42836488494117e-07,-0.1391999999999983,6050.199519921523,-0.1391999999999983,0.001467025160991176
-0.1387999999999983,2.428364880369066e-07,-0.1387999999999983,6055.038545753651,-0.1387999999999983,0.001468192845650695
-0.1383999999999982,2.428364875770461e-07,-0.1383999999999982,6059.88837333087,-0.1383999999999982,0.00146936312706647
-0.1379999999999982,2.428364871145251e-07,-0.1379999999999982,6064.749033713136,-0.1379999999999982,0.001470536012650125
-0.1375999999999982,2.428364866493783e-07,-0.1375999999999982,6069.620558075246,-0.1375999999999982,0.001471711509840823
-0.1371999999999982,2.428364861815496e-07,-0.1371999999999982,6074.502977706178,-0.1371999999999982,0.001472889626104146
-0.1367999999999982,2.428364857110906e-07,-0.1367999999999982,6079.396324010427,-0.1367999999999982,0.001474070368933655
-0.1363999999999982,2.428364852379907e-07,-0.1363999999999982,6084.30062851316,-0.1363999999999982,0.001475253745851113
-0.1359999999999982,2.428364847622068e-07,-0.1359999999999982,6089.215922850917,-0.1359999999999982,0.001476439764404369
-0.1355999999999982,2.428364842837592e-07,-0.1355999999999982,6094.142238782221,-0.1355999999999982,0.001477628432170586
-0.1351999999999982,2.428364838026539e-07,-0.1351999999999982,6099.079608181226,-0.1351999999999982,0.001478819756754124
-0.1347999999999981,2.428364833188886e-07,-0.1347999999999981,6104.028063044139,-0.1347999999999981,0.001480013745788211
-0.1343999999999981,2.42836482832424e-07,-0.1343999999999981,6108.987635480021,-0.1343999999999981,0.001481210406932498
-0.1339999999999981,2.428364823433019e-07,-0.1339999999999981,6113.958357725807,-0.1339999999999981,0.001482409747877389
